Time [s],Packet ID,Address,Data,Read/Write,ACK/NAK
4.708009500000000,0,'160' (0xA0),'0' (0x00),Write,ACK
4.708413500000000,1,'161' (0xA1),'5' (0x05),Read,NAK
4.708649000000000,2,'160' (0xA0),'1' (0x01),Write,ACK
4.709041500000000,3,'161' (0xA1),'5' (0x05),Read,NAK
4.709273000000000,4,'160' (0xA0),'2' (0x02),Write,ACK
4.709665500000000,5,'161' (0xA1),'1' (0x01),Read,NAK
4.709896000000000,6,'160' (0xA0),'3' (0x03),Write,ACK
4.710289000000000,7,'161' (0xA1),'11' (0x0B),Read,NAK
7.336098000000000,8,'192' (0xC0),'6' (0x06),Write,ACK
7.336207000000000,8,'192' (0xC0),Z (0x5A),Write,ACK
7.336309500000000,8,'192' (0xC0),Z (0x5A),Write,ACK
7.336415500000000,8,'192' (0xC0),'0' (0x00),Write,ACK
7.336523000000000,8,'192' (0xC0),'4' (0x04),Write,ACK
7.336627500000000,8,'192' (0xC0),'2' (0x02),Write,ACK
7.336736000000000,8,'192' (0xC0),'1' (0x01),Write,ACK
7.347470500000000,9,'193' (0xC1),'8' (0x08),Read,ACK
7.347569500000000,9,'193' (0xC1),'0' (0x00),Read,ACK
7.347671500000000,9,'193' (0xC1),'0' (0x00),Read,ACK
7.347770500000000,9,'193' (0xC1),'0' (0x00),Read,ACK
7.347869500000000,9,'193' (0xC1),'0' (0x00),Read,ACK
7.347968500000000,9,'193' (0xC1),'0' (0x00),Read,ACK
7.348067500000000,9,'193' (0xC1),'0' (0x00),Read,ACK
7.348166000000000,9,'193' (0xC1),'2' (0x02),Read,ACK
7.348265000000000,9,'193' (0xC1),'0' (0x00),Read,NAK
7.348768500000000,10,'192' (0xC0),'6' (0x06),Write,ACK
7.348873500000000,10,'192' (0xC0),Z (0x5A),Write,ACK
7.348975500000000,10,'192' (0xC0),Z (0x5A),Write,ACK
7.349077500000000,10,'192' (0xC0),'0' (0x00),Write,ACK
7.349179500000000,10,'192' (0xC0),'4' (0x04),Write,ACK
7.349282000000000,10,'192' (0xC0),'1' (0x01),Write,ACK
7.349385000000000,10,'192' (0xC0),'0' (0x00),Write,ACK
7.359455500000000,11,'193' (0xC1),'11' (0x0B),Read,ACK
7.359554500000000,11,'193' (0xC1),'0' (0x00),Read,ACK
7.359653500000000,11,'193' (0xC1),'0' (0x00),Read,ACK
7.359752000000000,11,'193' (0xC1),'0' (0x00),Read,ACK
7.359851000000000,11,'193' (0xC1),'0' (0x00),Read,ACK
7.359950000000000,11,'193' (0xC1),'0' (0x00),Read,ACK
7.360048500000000,11,'193' (0xC1),'0' (0x00),Read,ACK
7.360149000000000,11,'193' (0xC1),'1' (0x01),Read,ACK
7.360248000000000,11,'193' (0xC1),'3' (0x03),Read,ACK
7.360347000000000,11,'193' (0xC1),'1' (0x01),Read,ACK
7.360446000000000,11,'193' (0xC1),'0' (0x00),Read,ACK
7.360544500000000,11,'193' (0xC1),'0' (0x00),Read,NAK
7.364773500000000,12,'193' (0xC1),\t (0x09),Read,ACK
7.364872500000000,12,'193' (0xC1),Z (0x5A),Read,ACK
7.364971500000000,12,'193' (0xC1),Z (0x5A),Read,ACK
7.365070500000000,12,'193' (0xC1),'0' (0x00),Read,ACK
7.365170000000000,12,'193' (0xC1),'4' (0x04),Read,ACK
7.365269000000000,12,'193' (0xC1),'0' (0x00),Read,ACK
7.365367500000000,12,'193' (0xC1),'0' (0x00),Read,ACK
7.365466500000000,12,'193' (0xC1),'1' (0x01),Read,ACK
7.365565500000000,12,'193' (0xC1),'1' (0x01),Read,ACK
7.365664500000000,12,'193' (0xC1),'0' (0x00),Read,NAK
7.366008500000000,13,'192' (0xC0),\t (0x09),Write,ACK
7.366110500000000,13,'192' (0xC0),'0' (0x00),Write,ACK
7.366212500000000,13,'192' (0xC0),'0' (0x00),Write,ACK
7.366314500000000,13,'192' (0xC0),'0' (0x00),Write,ACK
7.366416500000000,13,'192' (0xC0),'0' (0x00),Write,ACK
7.366518500000000,13,'192' (0xC0),'0' (0x00),Write,ACK
7.366620000000000,13,'192' (0xC0),'0' (0x00),Write,ACK
7.366722000000000,13,'192' (0xC0),'1' (0x01),Write,ACK
7.366824000000000,13,'192' (0xC0),'1' (0x01),Write,ACK
7.366925500000000,13,'192' (0xC0),'0' (0x00),Write,ACK
7.377527500000000,14,'193' (0xC1),\t (0x09),Read,ACK
7.377626500000000,14,'193' (0xC1),Y (0x59),Read,ACK
7.377725500000000,14,'193' (0xC1),Y (0x59),Read,ACK
7.377824500000000,14,'193' (0xC1),'0' (0x00),Read,ACK
7.377923500000000,14,'193' (0xC1),'6' (0x06),Read,ACK
7.378022500000000,14,'193' (0xC1),'0' (0x00),Read,ACK
7.378121500000000,14,'193' (0xC1),'1' (0x01),Read,ACK
7.378220500000000,14,'193' (0xC1),'0' (0x00),Read,ACK
7.378319500000000,14,'193' (0xC1),'0' (0x00),Read,ACK
7.378418000000000,14,'193' (0xC1),'0' (0x00),Read,NAK
7.393985000000000,15,'192' (0xC0),'11' (0x0B),Write,ACK
7.394087000000000,15,'192' (0xC0),'0' (0x00),Write,ACK
7.394189000000000,15,'192' (0xC0),'0' (0x00),Write,ACK
7.394291500000000,15,'192' (0xC0),'0' (0x00),Write,ACK
7.394393500000000,15,'192' (0xC0),'2' (0x02),Write,ACK
7.394500500000000,15,'192' (0xC0),S (0x53),Write,ACK
7.394604500000000,15,'192' (0xC0),'1' (0x01),Write,ACK
7.394710500000000,15,'192' (0xC0),'0' (0x00),Write,ACK
7.394815000000000,15,'192' (0xC0),'0' (0x00),Write,ACK
7.394921000000000,15,'192' (0xC0),'0' (0x00),Write,ACK
7.395023500000000,15,'192' (0xC0),'1' (0x01),Write,ACK
7.395125000000000,15,'192' (0xC0),'0' (0x00),Write,ACK
42.148272499999997,16,'193' (0xC1),\t (0x09),Read,ACK
42.148371500000003,16,'193' (0xC1),Z (0x5A),Read,ACK
42.148470500000002,16,'193' (0xC1),Z (0x5A),Read,ACK
42.148569999999999,16,'193' (0xC1),'0' (0x00),Read,ACK
42.148668999999998,16,'193' (0xC1),'4' (0x04),Read,ACK
42.148767999999997,16,'193' (0xC1),'0' (0x00),Read,ACK
42.148867000000003,16,'193' (0xC1),'3' (0x03),Read,ACK
42.148966000000001,16,'193' (0xC1),'1' (0x01),Read,ACK
42.149065000000000,16,'193' (0xC1),'1' (0x01),Read,ACK
42.149163999999999,16,'193' (0xC1),. (0x2E),Read,NAK
42.149591999999998,17,'192' (0xC0),\t (0x09),Write,ACK
42.149698999999998,17,'192' (0xC0),'0' (0x00),Write,ACK
42.149805000000001,17,'192' (0xC0),'0' (0x00),Write,ACK
42.149911500000002,17,'192' (0xC0),'0' (0x00),Write,ACK
42.150019499999999,17,'192' (0xC0),'0' (0x00),Write,ACK
42.150124499999997,17,'192' (0xC0),'0' (0x00),Write,ACK
42.150229000000003,17,'192' (0xC0),'3' (0x03),Write,ACK
42.150339000000002,17,'192' (0xC0),'1' (0x01),Write,ACK
42.150443000000003,17,'192' (0xC0),'1' (0x01),Write,ACK
42.150550000000003,17,'192' (0xC0),. (0x2E),Write,ACK
