Time [s],Packet ID,Address,Data,Read/Write,ACK/NAK
8.258207499999999,0,'193' (0xC1),'12' (0x0C),Read,ACK
8.258306500000000,0,'193' (0xC1),Y (0x59),Read,ACK
8.258405500000000,0,'193' (0xC1),Y (0x59),Read,ACK
8.258504500000001,0,'193' (0xC1),'0' (0x00),Read,ACK
8.258603500000000,0,'193' (0xC1),'6' (0x06),Read,ACK
8.258702500000000,0,'193' (0xC1),'3' (0x03),Read,ACK
8.258801999999999,0,'193' (0xC1),'1' (0x01),Read,ACK
8.258901000000000,0,'193' (0xC1),'5' (0x05),Read,ACK
8.259000000000000,0,'193' (0xC1),'0' (0x00),Read,ACK
8.259098500000000,0,'193' (0xC1),'2' (0x02),Read,ACK
8.259198000000000,0,'193' (0xC1),'0' (0x00),Read,ACK
8.259297000000000,0,'193' (0xC1),'0' (0x00),Read,ACK
8.259396000000001,0,'193' (0xC1),. (0x2E),Read,NAK
8.259879000000000,1,'192' (0xC0),\n (0x0A),Write,ACK
8.259981000000000,1,'192' (0xC0),'0' (0x00),Write,ACK
8.260084000000001,1,'192' (0xC0),'0' (0x00),Write,ACK
8.260185500000000,1,'192' (0xC0),'0' (0x00),Write,ACK
8.260287500000000,1,'192' (0xC0),'2' (0x02),Write,ACK
8.260389000000000,1,'192' (0xC0),'3' (0x03),Write,ACK
8.260491000000000,1,'192' (0xC0),'1' (0x01),Write,ACK
8.260593000000000,1,'192' (0xC0),'5' (0x05),Write,ACK
8.260694500000000,1,'192' (0xC0),'0' (0x00),Write,ACK
8.260795999999999,1,'192' (0xC0),'0' (0x00),Write,ACK
8.260897999999999,1,'192' (0xC0),'0' (0x00),Write,ACK
19.871509000000000,2,'193' (0xC1),'12' (0x0C),Read,ACK
19.871607999999998,2,'193' (0xC1),Y (0x59),Read,ACK
19.871707000000001,2,'193' (0xC1),Y (0x59),Read,ACK
19.871805999999999,2,'193' (0xC1),'0' (0x00),Read,ACK
19.871905000000002,2,'193' (0xC1),'6' (0x06),Read,ACK
19.872004000000000,2,'193' (0xC1),'3' (0x03),Read,ACK
19.872102999999999,2,'193' (0xC1),'1' (0x01),Read,ACK
19.872202000000001,2,'193' (0xC1),'5' (0x05),Read,ACK
19.872301000000000,2,'193' (0xC1),'0' (0x00),Read,ACK
19.872399999999999,2,'193' (0xC1),'2' (0x02),Read,ACK
19.872499000000001,2,'193' (0xC1),'0' (0x00),Read,ACK
19.872598000000000,2,'193' (0xC1),'1' (0x01),Read,ACK
19.872696999999999,2,'193' (0xC1),. (0x2E),Read,NAK
20.276007000000000,3,'192' (0xC0),\n (0x0A),Write,ACK
20.276115999999998,3,'192' (0xC0),'0' (0x00),Write,ACK
20.276219000000001,3,'192' (0xC0),'0' (0x00),Write,ACK
20.276320500000001,3,'192' (0xC0),'0' (0x00),Write,ACK
20.276422499999999,3,'192' (0xC0),'2' (0x02),Write,ACK
20.276523999999998,3,'192' (0xC0),'3' (0x03),Write,ACK
20.276626000000000,3,'192' (0xC0),'1' (0x01),Write,ACK
20.276727500000000,3,'192' (0xC0),'5' (0x05),Write,ACK
20.276828999999999,3,'192' (0xC0),'0' (0x00),Write,ACK
20.276931000000001,3,'192' (0xC0),'0' (0x00),Write,ACK
20.277032999999999,3,'192' (0xC0),'0' (0x00),Write,ACK
29.912786499999999,4,'193' (0xC1),'12' (0x0C),Read,ACK
29.912885500000002,4,'193' (0xC1),Y (0x59),Read,ACK
29.912984500000000,4,'193' (0xC1),Y (0x59),Read,ACK
29.913083499999999,4,'193' (0xC1),'0' (0x00),Read,ACK
29.913182500000001,4,'193' (0xC1),'6' (0x06),Read,ACK
29.913281999999999,4,'193' (0xC1),'3' (0x03),Read,ACK
29.913380499999999,4,'193' (0xC1),'1' (0x01),Read,ACK
29.913479500000001,4,'193' (0xC1),'5' (0x05),Read,ACK
29.913578500000000,4,'193' (0xC1),'0' (0x00),Read,ACK
29.913678000000001,4,'193' (0xC1),'2' (0x02),Read,ACK
29.913777000000000,4,'193' (0xC1),'0' (0x00),Read,ACK
29.913875999999998,4,'193' (0xC1),'2' (0x02),Read,ACK
29.913975000000001,4,'193' (0xC1),. (0x2E),Read,NAK
30.304560500000001,5,'192' (0xC0),\n (0x0A),Write,ACK
30.304663000000001,5,'192' (0xC0),'0' (0x00),Write,ACK
30.304765000000000,5,'192' (0xC0),'0' (0x00),Write,ACK
30.304867000000002,5,'192' (0xC0),'0' (0x00),Write,ACK
30.304968500000001,5,'192' (0xC0),'2' (0x02),Write,ACK
30.305070000000001,5,'192' (0xC0),'3' (0x03),Write,ACK
30.305171999999999,5,'192' (0xC0),'1' (0x01),Write,ACK
30.305273499999998,5,'192' (0xC0),'5' (0x05),Write,ACK
30.305375000000002,5,'192' (0xC0),'0' (0x00),Write,ACK
30.305477000000000,5,'192' (0xC0),'0' (0x00),Write,ACK
30.305579000000002,5,'192' (0xC0),'0' (0x00),Write,ACK
52.896454499999997,6,'193' (0xC1),'12' (0x0C),Read,ACK
52.896554000000002,6,'193' (0xC1),Y (0x59),Read,ACK
52.896653000000001,6,'193' (0xC1),Y (0x59),Read,ACK
52.896751999999999,6,'193' (0xC1),'0' (0x00),Read,ACK
52.896850999999998,6,'193' (0xC1),'6' (0x06),Read,ACK
52.896949999999997,6,'193' (0xC1),'3' (0x03),Read,ACK
52.897049000000003,6,'193' (0xC1),'1' (0x01),Read,ACK
52.897148000000001,6,'193' (0xC1),'5' (0x05),Read,ACK
52.897247000000000,6,'193' (0xC1),'0' (0x00),Read,ACK
52.897345999999999,6,'193' (0xC1),'2' (0x02),Read,ACK
52.897444999999998,6,'193' (0xC1),'0' (0x00),Read,ACK
52.897544000000003,6,'193' (0xC1),'3' (0x03),Read,ACK
52.897643000000002,6,'193' (0xC1),. (0x2E),Read,NAK
53.314164499999997,7,'192' (0xC0),\n (0x0A),Write,ACK
53.314266500000002,7,'192' (0xC0),'0' (0x00),Write,ACK
53.314368500000000,7,'192' (0xC0),'0' (0x00),Write,ACK
53.314470499999999,7,'192' (0xC0),'0' (0x00),Write,ACK
53.314572499999997,7,'192' (0xC0),'2' (0x02),Write,ACK
53.314673999999997,7,'192' (0xC0),'3' (0x03),Write,ACK
53.314776000000002,7,'192' (0xC0),'1' (0x01),Write,ACK
53.314877500000001,7,'192' (0xC0),'5' (0x05),Write,ACK
53.314979500000000,7,'192' (0xC0),'0' (0x00),Write,ACK
53.315081499999998,7,'192' (0xC0),'0' (0x00),Write,ACK
53.315182999999998,7,'192' (0xC0),'0' (0x00),Write,ACK
71.776866499999997,8,'193' (0xC1),'12' (0x0C),Read,ACK
71.776965500000003,8,'193' (0xC1),Y (0x59),Read,ACK
71.777064499999994,8,'193' (0xC1),Y (0x59),Read,ACK
71.777163999999999,8,'193' (0xC1),'0' (0x00),Read,ACK
71.777263000000005,8,'193' (0xC1),'6' (0x06),Read,ACK
71.777361499999998,8,'193' (0xC1),'3' (0x03),Read,ACK
71.777460500000004,8,'193' (0xC1),'1' (0x01),Read,ACK
71.777559499999995,8,'193' (0xC1),'5' (0x05),Read,ACK
71.777658500000001,8,'193' (0xC1),'0' (0x00),Read,ACK
71.777756999999994,8,'193' (0xC1),'2' (0x02),Read,ACK
71.777856499999999,8,'193' (0xC1),'1' (0x01),Read,ACK
71.777955000000006,8,'193' (0xC1),'0' (0x00),Read,ACK
71.778053999999997,8,'193' (0xC1),. (0x2E),Read,NAK
71.778611499999997,9,'192' (0xC0),\n (0x0A),Write,ACK
71.778715500000004,9,'192' (0xC0),'0' (0x00),Write,ACK
71.778823000000003,9,'192' (0xC0),'0' (0x00),Write,ACK
71.778928500000006,9,'192' (0xC0),'0' (0x00),Write,ACK
71.779032999999998,9,'192' (0xC0),'2' (0x02),Write,ACK
71.779135999999994,9,'192' (0xC0),'3' (0x03),Write,ACK
71.779238000000007,9,'192' (0xC0),'1' (0x01),Write,ACK
71.779340000000005,9,'192' (0xC0),'5' (0x05),Write,ACK
71.779441500000004,9,'192' (0xC0),'0' (0x00),Write,ACK
71.779543000000004,9,'192' (0xC0),'0' (0x00),Write,ACK
71.779645000000002,9,'192' (0xC0),'0' (0x00),Write,ACK
80.337828000000002,10,'193' (0xC1),'12' (0x0C),Read,ACK
80.337926999999993,10,'193' (0xC1),Y (0x59),Read,ACK
80.338026499999998,10,'193' (0xC1),Y (0x59),Read,ACK
80.338125500000004,10,'193' (0xC1),'0' (0x00),Read,ACK
80.338223999999997,10,'193' (0xC1),'6' (0x06),Read,ACK
80.338323000000003,10,'193' (0xC1),'3' (0x03),Read,ACK
80.338421999999994,10,'193' (0xC1),'1' (0x01),Read,ACK
80.338521000000000,10,'193' (0xC1),'5' (0x05),Read,ACK
80.338620000000006,10,'193' (0xC1),'0' (0x00),Read,ACK
80.338718999999998,10,'193' (0xC1),'2' (0x02),Read,ACK
80.338818000000003,10,'193' (0xC1),'1' (0x01),Read,ACK
80.338916999999995,10,'193' (0xC1),'1' (0x01),Read,ACK
80.339016000000001,10,'193' (0xC1),. (0x2E),Read,NAK
80.797770499999999,11,'192' (0xC0),\n (0x0A),Write,ACK
80.797872999999996,11,'192' (0xC0),'0' (0x00),Write,ACK
80.797975500000007,11,'192' (0xC0),'0' (0x00),Write,ACK
80.798078000000004,11,'192' (0xC0),'0' (0x00),Write,ACK
80.798179500000003,11,'192' (0xC0),'2' (0x02),Write,ACK
80.798281500000002,11,'192' (0xC0),'3' (0x03),Write,ACK
80.798383500000000,11,'192' (0xC0),'1' (0x01),Write,ACK
80.798484999999999,11,'192' (0xC0),'5' (0x05),Write,ACK
80.798586999999998,11,'192' (0xC0),'0' (0x00),Write,ACK
80.798688499999997,11,'192' (0xC0),'0' (0x00),Write,ACK
80.798790499999996,11,'192' (0xC0),'0' (0x00),Write,ACK
91.720451999999995,12,'193' (0xC1),'12' (0x0C),Read,ACK
91.720551000000000,12,'193' (0xC1),Y (0x59),Read,ACK
91.720650000000006,12,'193' (0xC1),Y (0x59),Read,ACK
91.720749499999997,12,'193' (0xC1),'0' (0x00),Read,ACK
91.720848500000002,12,'193' (0xC1),'6' (0x06),Read,ACK
91.720947499999994,12,'193' (0xC1),'3' (0x03),Read,ACK
91.721046000000001,12,'193' (0xC1),'1' (0x01),Read,ACK
91.721145500000006,12,'193' (0xC1),'5' (0x05),Read,ACK
91.721244499999997,12,'193' (0xC1),'0' (0x00),Read,ACK
91.721343500000003,12,'193' (0xC1),'2' (0x02),Read,ACK
91.721441999999996,12,'193' (0xC1),'1' (0x01),Read,ACK
91.721541000000002,12,'193' (0xC1),'2' (0x02),Read,ACK
91.721639999999994,12,'193' (0xC1),. (0x2E),Read,NAK
92.162259000000006,13,'192' (0xC0),\n (0x0A),Write,ACK
92.162361000000004,13,'192' (0xC0),'0' (0x00),Write,ACK
92.162473000000006,13,'192' (0xC0),'0' (0x00),Write,ACK
92.162574500000005,13,'192' (0xC0),'0' (0x00),Write,ACK
92.162677500000001,13,'192' (0xC0),'2' (0x02),Write,ACK
92.162779499999999,13,'192' (0xC0),'3' (0x03),Write,ACK
92.162880999999999,13,'192' (0xC0),'1' (0x01),Write,ACK
92.162982999999997,13,'192' (0xC0),'5' (0x05),Write,ACK
92.163085499999994,13,'192' (0xC0),'0' (0x00),Write,ACK
92.163186999999994,13,'192' (0xC0),'0' (0x00),Write,ACK
92.163289000000006,13,'192' (0xC0),'0' (0x00),Write,ACK
109.057534500000003,14,'193' (0xC1),'12' (0x0C),Read,ACK
109.057633499999994,14,'193' (0xC1),Y (0x59),Read,ACK
109.057732500000000,14,'193' (0xC1),Y (0x59),Read,ACK
109.057831500000006,14,'193' (0xC1),'0' (0x00),Read,ACK
109.057930499999998,14,'193' (0xC1),'6' (0x06),Read,ACK
109.058030000000002,14,'193' (0xC1),'3' (0x03),Read,ACK
109.058128499999995,14,'193' (0xC1),'1' (0x01),Read,ACK
109.058227500000001,14,'193' (0xC1),'5' (0x05),Read,ACK
109.058335000000000,14,'193' (0xC1),'0' (0x00),Read,ACK
109.058434000000005,14,'193' (0xC1),'2' (0x02),Read,ACK
109.058532999999997,14,'193' (0xC1),'2' (0x02),Read,ACK
109.058632000000003,14,'193' (0xC1),'0' (0x00),Read,ACK
109.058730999999995,14,'193' (0xC1),. (0x2E),Read,NAK
109.059337999999997,15,'192' (0xC0),\n (0x0A),Write,ACK
109.059443500000000,15,'192' (0xC0),'0' (0x00),Write,ACK
109.059548500000005,15,'192' (0xC0),'0' (0x00),Write,ACK
109.059652499999999,15,'192' (0xC0),'0' (0x00),Write,ACK
109.059754499999997,15,'192' (0xC0),'2' (0x02),Write,ACK
109.059855999999996,15,'192' (0xC0),'3' (0x03),Write,ACK
109.059957499999996,15,'192' (0xC0),'1' (0x01),Write,ACK
109.060059499999994,15,'192' (0xC0),'5' (0x05),Write,ACK
109.060161500000007,15,'192' (0xC0),'0' (0x00),Write,ACK
109.060263000000006,15,'192' (0xC0),'0' (0x00),Write,ACK
109.060365000000004,15,'192' (0xC0),'0' (0x00),Write,ACK
118.259658000000002,16,'193' (0xC1),'12' (0x0C),Read,ACK
118.259757500000006,16,'193' (0xC1),Y (0x59),Read,ACK
118.259856499999998,16,'193' (0xC1),Y (0x59),Read,ACK
118.259955500000004,16,'193' (0xC1),'0' (0x00),Read,ACK
118.260054499999995,16,'193' (0xC1),'6' (0x06),Read,ACK
118.260153000000003,16,'193' (0xC1),'3' (0x03),Read,ACK
118.260251999999994,16,'193' (0xC1),'1' (0x01),Read,ACK
118.260351499999999,16,'193' (0xC1),'5' (0x05),Read,ACK
118.260450500000005,16,'193' (0xC1),'0' (0x00),Read,ACK
118.260549499999996,16,'193' (0xC1),'2' (0x02),Read,ACK
118.260648000000003,16,'193' (0xC1),'2' (0x02),Read,ACK
118.260747499999994,16,'193' (0xC1),'1' (0x01),Read,ACK
118.260846500000000,16,'193' (0xC1),. (0x2E),Read,NAK
118.691019499999996,17,'192' (0xC0),\n (0x0A),Write,ACK
118.691121999999993,17,'192' (0xC0),'0' (0x00),Write,ACK
118.691224500000004,17,'192' (0xC0),'0' (0x00),Write,ACK
118.691326000000004,17,'192' (0xC0),'0' (0x00),Write,ACK
118.691428000000002,17,'192' (0xC0),'2' (0x02),Write,ACK
118.691530000000000,17,'192' (0xC0),'3' (0x03),Write,ACK
118.691631500000000,17,'192' (0xC0),'1' (0x01),Write,ACK
118.691733499999998,17,'192' (0xC0),'5' (0x05),Write,ACK
118.691834999999998,17,'192' (0xC0),'0' (0x00),Write,ACK
118.691936999999996,17,'192' (0xC0),'0' (0x00),Write,ACK
118.692038499999995,17,'192' (0xC0),'0' (0x00),Write,ACK
129.889984499999997,18,'193' (0xC1),'12' (0x0C),Read,ACK
129.890083500000003,18,'193' (0xC1),Y (0x59),Read,ACK
129.890182500000009,18,'193' (0xC1),Y (0x59),Read,ACK
129.890281499999986,18,'193' (0xC1),'0' (0x00),Read,ACK
129.890380499999992,18,'193' (0xC1),'6' (0x06),Read,ACK
129.890478999999999,18,'193' (0xC1),'3' (0x03),Read,ACK
129.890578000000005,18,'193' (0xC1),'1' (0x01),Read,ACK
129.890677000000011,18,'193' (0xC1),'5' (0x05),Read,ACK
129.890775999999988,18,'193' (0xC1),'0' (0x00),Read,ACK
129.890875499999993,18,'193' (0xC1),'2' (0x02),Read,ACK
129.890974499999999,18,'193' (0xC1),'2' (0x02),Read,ACK
129.891073500000005,18,'193' (0xC1),'2' (0x02),Read,ACK
129.891172000000012,18,'193' (0xC1),. (0x2E),Read,NAK
130.322522999999990,19,'192' (0xC0),\n (0x0A),Write,ACK
130.322624999999988,19,'192' (0xC0),'0' (0x00),Write,ACK
130.322727500000013,19,'192' (0xC0),'0' (0x00),Write,ACK
130.322830000000010,19,'192' (0xC0),'0' (0x00),Write,ACK
130.322931500000010,19,'192' (0xC0),'2' (0x02),Write,ACK
130.323033500000008,19,'192' (0xC0),'3' (0x03),Write,ACK
130.323135000000008,19,'192' (0xC0),'1' (0x01),Write,ACK
130.323236500000007,19,'192' (0xC0),'5' (0x05),Write,ACK
130.323339000000004,19,'192' (0xC0),'0' (0x00),Write,ACK
130.323440500000004,19,'192' (0xC0),'0' (0x00),Write,ACK
130.323542000000003,19,'192' (0xC0),'0' (0x00),Write,ACK
153.021725500000002,20,'193' (0xC1),\n (0x0A),Read,ACK
153.021824500000008,20,'193' (0xC1),Y (0x59),Read,ACK
153.021922999999987,20,'193' (0xC1),Y (0x59),Read,ACK
153.022021999999993,20,'193' (0xC1),'0' (0x00),Read,ACK
153.022120999999999,20,'193' (0xC1),'6' (0x06),Read,ACK
153.022220000000004,20,'193' (0xC1),'3' (0x03),Read,ACK
153.022319500000009,20,'193' (0xC1),'1' (0x01),Read,ACK
153.022418499999986,20,'193' (0xC1),'4' (0x04),Read,ACK
153.022517499999992,20,'193' (0xC1),'0' (0x00),Read,ACK
153.022616999999997,20,'193' (0xC1),'0' (0x00),Read,ACK
153.022716000000003,20,'193' (0xC1),. (0x2E),Read,NAK
153.023156999999998,21,'192' (0xC0),'12' (0x0C),Write,ACK
153.023258999999996,21,'192' (0xC0),'0' (0x00),Write,ACK
153.023360499999995,21,'192' (0xC0),'0' (0x00),Write,ACK
153.023462499999994,21,'192' (0xC0),'0' (0x00),Write,ACK
153.023563999999993,21,'192' (0xC0),'2' (0x02),Write,ACK
153.023666999999989,21,'192' (0xC0),'3' (0x03),Write,ACK
153.023768499999989,21,'192' (0xC0),'1' (0x01),Write,ACK
153.023870499999987,21,'192' (0xC0),'4' (0x04),Write,ACK
153.023971999999986,21,'192' (0xC0),'0' (0x00),Write,ACK
153.024074000000013,21,'192' (0xC0),'0' (0x00),Write,ACK
153.024175500000013,21,'192' (0xC0),'2' (0x02),Write,ACK
153.024277000000012,21,'192' (0xC0),'2' (0x02),Write,ACK
153.024379000000010,21,'192' (0xC0),'2' (0x02),Write,ACK
162.274764000000005,22,'193' (0xC1),\n (0x0A),Read,ACK
162.274863000000011,22,'193' (0xC1),Y (0x59),Read,ACK
162.274961999999988,22,'193' (0xC1),Y (0x59),Read,ACK
162.275060999999994,22,'193' (0xC1),'0' (0x00),Read,ACK
162.275159500000001,22,'193' (0xC1),'6' (0x06),Read,ACK
162.275258500000007,22,'193' (0xC1),'3' (0x03),Read,ACK
162.275357500000013,22,'193' (0xC1),'1' (0x01),Read,ACK
162.275456499999990,22,'193' (0xC1),'4' (0x04),Read,ACK
162.275555499999996,22,'193' (0xC1),'0' (0x00),Read,ACK
162.275654500000002,22,'193' (0xC1),'0' (0x00),Read,ACK
162.275753500000008,22,'193' (0xC1),. (0x2E),Read,NAK
162.284634000000011,23,'192' (0xC0),'12' (0x0C),Write,ACK
162.284736000000009,23,'192' (0xC0),'0' (0x00),Write,ACK
162.284837500000009,23,'192' (0xC0),'0' (0x00),Write,ACK
162.284939500000007,23,'192' (0xC0),'0' (0x00),Write,ACK
162.285042000000004,23,'192' (0xC0),'2' (0x02),Write,ACK
162.285144000000003,23,'192' (0xC0),'3' (0x03),Write,ACK
162.285246000000001,23,'192' (0xC0),'1' (0x01),Write,ACK
162.285347500000000,23,'192' (0xC0),'4' (0x04),Write,ACK
162.285449499999999,23,'192' (0xC0),'0' (0x00),Write,ACK
162.285550999999998,23,'192' (0xC0),'0' (0x00),Write,ACK
162.285652499999998,23,'192' (0xC0),'2' (0x02),Write,ACK
162.285754499999996,23,'192' (0xC0),'2' (0x02),Write,ACK
162.285855999999995,23,'192' (0xC0),'2' (0x02),Write,ACK
192.543568499999992,24,'193' (0xC1),'7' (0x07),Read,ACK
192.543667999999997,24,'193' (0xC1),Z (0x5A),Read,ACK
192.543767000000003,24,'193' (0xC1),Z (0x5A),Read,ACK
192.543866000000008,24,'193' (0xC1),'0' (0x00),Read,ACK
192.543964999999986,24,'193' (0xC1),'4' (0x04),Read,ACK
192.544063499999993,24,'193' (0xC1),'0' (0x00),Read,ACK
192.544162999999998,24,'193' (0xC1),'3' (0x03),Read,ACK
192.544262000000003,24,'193' (0xC1),. (0x2E),Read,NAK
192.547270499999996,25,'192' (0xC0),'7' (0x07),Write,ACK
192.547374999999988,25,'192' (0xC0),'0' (0x00),Write,ACK
192.547479500000009,25,'192' (0xC0),'0' (0x00),Write,ACK
192.547583500000002,25,'192' (0xC0),'0' (0x00),Write,ACK
192.547685999999999,25,'192' (0xC0),'0' (0x00),Write,ACK
192.547788499999996,25,'192' (0xC0),'0' (0x00),Write,ACK
192.547890499999994,25,'192' (0xC0),'3' (0x03),Write,ACK
192.547999000000004,25,'192' (0xC0),. (0x2E),Write,ACK
